T3EAC 1571:969 SEGGER J-Link V6.46 Log File (0001ms, 11706ms total)
T3EAC 1571:969 DLL Compiled: May 23 2019 17:49:56 (0001ms, 11706ms total)
T3EAC 1571:969 Logging started @ 2020-03-30 09:54 (0001ms, 11706ms total)
T3EAC 1571:970 JLINK_SetWarnOutHandler(...) (0000ms, 11706ms total)
T3EAC 1571:970 JLINK_OpenEx(...)
Firmware: J-Link V9 compiled May 17 2019 09:50:41
Hardware: V9.40
S/N: 59400616
Feature(s): RDI, FlashBP, FlashDL, JFlash, GDB
TELNET listener socket opened on port 19021WEBSRV 
Starting webserver (0066ms, 11772ms total)
T3EAC 1571:970 WEBSRV Webserver running on local port 19080 (0066ms, 11772ms total)
T3EAC 1571:970   returns O.K. (0066ms, 11772ms total)
T3EAC 1572:036 JLINK_GetEmuCaps()  returns 0xB9FF7BBF (0000ms, 11772ms total)
T3EAC 1572:036 JLINK_TIF_GetAvailable(...) (0001ms, 11773ms total)
T3EAC 1572:037 JLINK_SetErrorOutHandler(...) (0000ms, 11773ms total)
T3EAC 1572:037 JLINK_ExecCommand("ProjectFile = "D:\ProjectCode\AIO\AIO_163_Docking_Board\trunk\project\bootcode\JLinkSettings.ini"", ...).   returns 0x00 (0001ms, 11774ms total)
T3EAC 1572:039 JLINK_ExecCommand("Device = LPC4337:Cortex-M4", ...). Device "LPC4337_M4" selected.  returns 0x00 (0011ms, 11785ms total)
T3EAC 1572:050 JLINK_ExecCommand("DisableConnectionTimeout", ...).   returns 0x01 (0000ms, 11785ms total)
T3EAC 1572:050 JLINK_GetHardwareVersion()  returns 0x16F30 (0000ms, 11785ms total)
T3EAC 1572:050 JLINK_GetDLLVersion()  returns 64600 (0000ms, 11785ms total)
T3EAC 1572:050 JLINK_GetFirmwareString(...) (0000ms, 11785ms total)
T3EAC 1572:055 JLINK_GetDLLVersion()  returns 64600 (0000ms, 11785ms total)
T3EAC 1572:056 JLINK_GetCompileDateTime() (0000ms, 11786ms total)
T3EAC 1572:057 JLINK_GetFirmwareString(...) (0000ms, 11786ms total)
T3EAC 1572:059 JLINK_GetHardwareVersion()  returns 0x16F30 (0000ms, 11786ms total)
T3EAC 1572:068 JLINK_TIF_Select(JLINKARM_TIF_SWD)  returns 0x00 (0001ms, 11787ms total)
T3EAC 1572:069 JLINK_SetSpeed(50000) (0001ms, 11788ms total)
T3EAC 1572:070 JLINK_GetId() >0x10B TIF> >0x10F TIF> >0x10B TIF> >0x10F TIF> >0x10B TIF>Found SW-DP with ID 0x2BA01477 >0x0D TIF> >0x28 TIF> >0x0D TIF> >0x28 TIF>SWD speed too high. Reduced from 12000 kHz to 8100 kHz for stability >0x0D TIF> >0x28 TIF> >0x0D TIF> >0x28 TIF> >0x0D TIF> >0x21 TIF> >0x0D TIF> >0x28 TIF>Scanning AP map to find all available APs >0x0D TIF> >0x28 TIF> >0x0D TIF> >0x21 TIF> >0x0D TIF> >0x21 TIF> >0x0D TIF> >0x28 TIF> >0x0D TIF> >0x21 TIF> >0x0D TIF> >0x21 TIF>
AP[1]: Stopped AP scan as end of AP map has been reachedAP[0]: AHB-AP (IDR: 0x24770011)Iterating through AP map to find AHB-AP to use >0x42 TIF> >0x28 TIF> >0x0D TIF> >0x28 TIF> >0x0D TIF> >0x21 TIF> >0x0D TIF> >0x21 TIF> >0x42 TIF> >0x28 TIF> >0x0D TIF> >0x28 TIF> >0x0D TIF> >0x28 TIF> >0x0D TIF> >0x21 TIF> >0x0D TIF> >0x21 TIF>AP[0]: Core foundAP[0]: AHB-AP ROM base: 0xE00FF000 >0x0D TIF> >0x28 TIF> >0x0D TIF> >0x28 TIF> >0x0D TIF> >0x28 TIF> >0x0D TIF> >0x21 TIF> >0x0D TIF> >0x21 TIF>
CPUID register: 0x410FC241. Implementer code: 0x41 (ARM)Found Cortex-M4 r0p1, Little endian. -- Max. mem block: 0x00010F28 -- CPU_ReadMem(4 bytes @ 0xE000EDF0) -- CPU_WriteMem(4 bytes @ 0xE000EDF0) -- CPU_ReadMem(4 bytes @ 0xE0002000)FPUnit: 6 code (BP) slots and 2 literal slots -- CPU_ReadMem(4 bytes @ 0xE000EDFC) -- CPU_WriteMem(4 bytes @ 0xE000EDFC) -- CPU_ReadMem(4 bytes @ 0xE0001000) -- CPU_WriteMem(4 bytes @ 0xE0001000) -- CPU_ReadMem(4 bytes @ 0xE000ED88) -- CPU_WriteMem(4 bytes @ 0xE000ED88)
 -- CPU_ReadMem(4 bytes @ 0xE000ED88) -- CPU_WriteMem(4 bytes @ 0xE000ED88)CoreSight components:ROMTbl[0] @ E00FF000 -- CPU_ReadMem(16 bytes @ 0xE00FF000) -- CPU_ReadMem(16 bytes @ 0xE000EFF0) -- CPU_ReadMem(16 bytes @ 0xE000EFE0)ROMTbl[0][0]: E000E000, CID: B105E00D, PID: 000BB00C SCS-M7 -- CPU_ReadMem(16 bytes @ 0xE0001FF0) -- CPU_ReadMem(16 bytes @ 0xE0001FE0)ROMTbl[0][1]: E0001000, CID: B105E00D, PID: 003BB002 DWT -- CPU_ReadMem(16 bytes @ 0xE0002FF0) -- CPU_ReadMem(16 bytes @ 0xE0002FE0)
ROMTbl[0][2]: E0002000, CID: B105E00D, PID: 002BB003 FPB -- CPU_ReadMem(16 bytes @ 0xE0000FF0) -- CPU_ReadMem(16 bytes @ 0xE0000FE0)ROMTbl[0][3]: E0000000, CID: B105E00D, PID: 003BB001 ITM -- CPU_ReadMem(16 bytes @ 0xE00FF010) -- CPU_ReadMem(16 bytes @ 0xE0040FF0) -- CPU_ReadMem(16 bytes @ 0xE0040FE0)ROMTbl[0][4]: E0040000, CID: B105900D, PID: 000BB9A1 TPIU -- CPU_ReadMem(16 bytes @ 0xE0041FF0) -- CPU_ReadMem(16 bytes @ 0xE0041FE0)ROMTbl[0][5]: E0041000, CID: B105900D, PID: 000BB925 ETM >0x0D TIF>
 >0x21 TIF>  returns 0x2BA01477 (0270ms, 12058ms total)
T3EAC 1572:340 JLINK_GetDLLVersion()  returns 64600 (0000ms, 12058ms total)
T3EAC 1572:340 JLINK_CORE_GetFound()  returns 0xE0000FF (0000ms, 12058ms total)
T3EAC 1572:340 JLINK_GetDebugInfo(0x100 = JLINKARM_ROM_TABLE_ADDR_INDEX) -- Value=0xE00FF000  returns 0x00 (0000ms, 12058ms total)
T3EAC 1572:342 JLINK_GetDebugInfo(0x100 = JLINKARM_ROM_TABLE_ADDR_INDEX) -- Value=0xE00FF000  returns 0x00 (0000ms, 12058ms total)
T3EAC 1572:342 JLINK_GetDebugInfo(0x101 = JLINKARM_DEBUG_INFO_ETM_ADDR_INDEX) -- Value=0xE0041000  returns 0x00 (0000ms, 12058ms total)
T3EAC 1572:342 JLINK_ReadMemEx(0xE0041FD0, 0x0020 Bytes, ..., Flags = 0x02000004) -- CPU_ReadMem(32 bytes @ 0xE0041FD0) - Data: 04 00 00 00 00 00 00 00 00 00 00 00 00 00 00 00 ...  returns 0x20 (0000ms, 12058ms total)
T3EAC 1572:342 JLINK_GetDebugInfo(0x102 = JLINKARM_DEBUG_INFO_MTB_ADDR_INDEX) -- Value=0x00000000  returns 0x00 (0000ms, 12058ms total)
T3EAC 1572:342 JLINK_GetDebugInfo(0x103 = JLINKARM_DEBUG_INFO_TPIU_ADDR_INDEX) -- Value=0xE0040000  returns 0x00 (0000ms, 12058ms total)
T3EAC 1572:342 JLINK_GetDebugInfo(0x104 = JLINKARM_DEBUG_INFO_ITM_ADDR_INDEX) -- Value=0xE0000000  returns 0x00 (0000ms, 12058ms total)
T3EAC 1572:342 JLINK_GetDebugInfo(0x105 = JLINKARM_DEBUG_INFO_DWT_ADDR_INDEX) -- Value=0xE0001000  returns 0x00 (0000ms, 12058ms total)
T3EAC 1572:342 JLINK_GetDebugInfo(0x106 = JLINKARM_DEBUG_INFO_FPB_ADDR_INDEX) -- Value=0xE0002000  returns 0x00 (0000ms, 12058ms total)
T3EAC 1572:342 JLINK_GetDebugInfo(0x107 = JLINKARM_DEBUG_INFO_NVIC_ADDR_INDEX) -- Value=0xE000E000  returns 0x00 (0000ms, 12058ms total)
T3EAC 1572:342 JLINK_GetDebugInfo(0x10C = JLINKARM_DEBUG_INFO_DBG_ADDR_INDEX) -- Value=0xE000EDF0  returns 0x00 (0000ms, 12058ms total)
T3EAC 1572:342 JLINK_GetDebugInfo(0x01 = Unknown) -- Value=0x00000001  returns 0x00 (0001ms, 12059ms total)
T3EAC 1572:343 JLINK_ReadMemU32(0xE000ED00, 0x0001 Items, ...) -- CPU_ReadMem(4 bytes @ 0xE000ED00) - Data: 41 C2 0F 41  returns 1 (0000ms, 12059ms total)
T3EAC 1572:343 JLINK_GetDebugInfo(0x10F = JLINKARM_DEBUG_INFO_HAS_CORTEX_M_SECURITY_EXT_INDEX) -- Value=0x00000000  returns 0x00 (0000ms, 12059ms total)
T3EAC 1572:343 JLINK_SetResetType(JLINKARM_CM3_RESET_TYPE_NORMAL)  returns JLINKARM_CM3_RESET_TYPE_NORMAL (0000ms, 12059ms total)
T3EAC 1572:343 JLINK_Reset()LPC18xx/43xx reset: Halting CPU before performing reset...LPC18xx/43xx reset: Halted CPU before reset. -- CPU_ReadMem(64 bytes @ 0x10000000) -- CPU_ReadMem(64 bytes @ 0x10080000) -- CPU_ReadMem(4096 bytes @ 0x10089000) -- CPU_WriteMem(4 bytes @ 0x40043100) -- CPU_WriteMem(4 bytes @ 0x4004312C) -- CPU_ReadMem(4 bytes @ 0xE000EDFC) -- CPU_ReadMem(4 bytes @ 0xE0001020) -- CPU_ReadMem(4 bytes @ 0xE0001024) -- CPU_ReadMem(4 bytes @ 0xE0001028) -- CPU_WriteMem(4 bytes @ 0xE0001020)
 -- CPU_WriteMem(4 bytes @ 0xE0001024) -- CPU_WriteMem(4 bytes @ 0xE0001028) -- CPU_ReadMem(8192 bytes @ 0x10400000)Unknown LPC18xx/43xx bootloader variant. Halting after reset may fail. -- CPU_ReadMem(4 bytes @ 0xE000EDFC) -- CPU_WriteMem(4 bytes @ 0xE000ED0C) -- CPU_WriteMem(4 bytes @ 0xE0001020) -- CPU_WriteMem(4 bytes @ 0xE0001024) -- CPU_WriteMem(4 bytes @ 0xE0001028) -- CPU_WriteMem(64 bytes @ 0x10000000) -- CPU_WriteMem(64 bytes @ 0x10080000) -- CPU_WriteMem(4096 bytes @ 0x10089000)
 -- CPU_ReadMem(4 bytes @ 0x00000000) -- CPU_WriteMem(4 bytes @ 0xE000EDF8) -- CPU_WriteMem(4 bytes @ 0xE000EDF4) -- CPU_ReadMem(4 bytes @ 0x00000004) -- CPU_WriteMem(4 bytes @ 0xE000EDF8) -- CPU_WriteMem(4 bytes @ 0xE000EDF4) -- CPU_WriteMem(4 bytes @ 0xE0002000) -- CPU_ReadMem(4 bytes @ 0xE000EDFC) -- CPU_ReadMem(4 bytes @ 0xE0001000) (0195ms, 12254ms total)
T3EAC 1572:538 JLINK_Halt()  returns 0x00 (0000ms, 12254ms total)
T3EAC 1572:538 JLINK_ReadMemU32(0xE000EDF0, 0x0001 Items, ...) -- CPU_ReadMem(4 bytes @ 0xE000EDF0) - Data: 03 00 03 00  returns 1 (0000ms, 12254ms total)
T3EAC 1572:538 JLINK_WriteU32(0xE000EDF0, 0xA05F0003) -- CPU_WriteMem(4 bytes @ 0xE000EDF0)  returns 0 (0001ms, 12255ms total)
T3EAC 1572:539 JLINK_WriteU32(0xE000EDFC, 0x01000000) -- CPU_WriteMem(4 bytes @ 0xE000EDFC)  returns 0 (0000ms, 12255ms total)
T3EAC 1572:547 JLINK_GetHWStatus(...)  returns 0x00 (0000ms, 12255ms total)
T3EAC 1572:555 JLINK_GetNumBPUnits(Type = 0xFFFFFF00)  returns 0x06 (0000ms, 12255ms total)
T3EAC 1572:555 JLINK_GetNumBPUnits(Type = 0xF0)  returns 0x2000 (0000ms, 12255ms total)
T3EAC 1572:555 JLINK_GetNumWPUnits()  returns 0x04 (0000ms, 12255ms total)
T3EAC 1572:559 JLINK_GetSpeed()  returns 0x1770 (0000ms, 12255ms total)
T3EAC 1572:565 JLINK_ReadMemU32(0xE000E004, 0x0001 Items, ...) -- CPU_ReadMem(4 bytes @ 0xE000E004) - Data: 01 00 00 00  returns 1 (0000ms, 12255ms total)
T3EAC 1572:565 JLINK_ReadMemU32(0xE000E004, 0x0001 Items, ...) -- CPU_ReadMem(4 bytes @ 0xE000E004) - Data: 01 00 00 00  returns 1 (0001ms, 12256ms total)
T3EAC 1572:566 JLINK_WriteMemEx(0xE0001000, 0x001C Bytes, ..., Flags = 0x02000004) - Data: 01 00 00 00 00 00 00 00 00 00 00 00 00 00 00 00 ... -- CPU_WriteMem(28 bytes @ 0xE0001000)  returns 0x1C (0001ms, 12257ms total)
T3EAC 1572:567 JLINK_Halt()  returns 0x00 (0000ms, 12257ms total)
T3EAC 1572:567 JLINK_IsHalted()  returns TRUE (0000ms, 12257ms total)
T3EAC 1572:569 JLINK_WriteMem(0x10000000, 0x01CC Bytes, ...) - Data: 00 BE 0A E0 0D 78 2D 06 68 40 08 24 40 00 00 D3 ... -- CPU_WriteMem(460 bytes @ 0x10000000)  returns 0x1CC (0002ms, 12259ms total)
T3EAC 1572:571 JLINK_WriteReg(R0, 0x1A000000)  returns 0x00 (0000ms, 12259ms total)
T3EAC 1572:571 JLINK_WriteReg(R1, 0x00B71B00)  returns 0x00 (0000ms, 12259ms total)
T3EAC 1572:571 JLINK_WriteReg(R2, 0x00000001)  returns 0x00 (0000ms, 12259ms total)
T3EAC 1572:571 JLINK_WriteReg(R3, 0x00000000)  returns 0x00 (0000ms, 12259ms total)
T3EAC 1572:571 JLINK_WriteReg(R4, 0x00000000)  returns 0x00 (0000ms, 12259ms total)
T3EAC 1572:571 JLINK_WriteReg(R5, 0x00000000)  returns 0x00 (0000ms, 12259ms total)
T3EAC 1572:571 JLINK_WriteReg(R6, 0x00000000)  returns 0x00 (0000ms, 12259ms total)
T3EAC 1572:571 JLINK_WriteReg(R7, 0x00000000)  returns 0x00 (0000ms, 12259ms total)
T3EAC 1572:571 JLINK_WriteReg(R8, 0x00000000)  returns 0x00 (0000ms, 12259ms total)
T3EAC 1572:571 JLINK_WriteReg(R9, 0x100001BC)  returns 0x00 (0000ms, 12259ms total)
T3EAC 1572:571 JLINK_WriteReg(R10, 0x00000000)  returns 0x00 (0000ms, 12259ms total)
T3EAC 1572:571 JLINK_WriteReg(R11, 0x00000000)  returns 0x00 (0000ms, 12259ms total)
T3EAC 1572:571 JLINK_WriteReg(R12, 0x00000000)  returns 0x00 (0000ms, 12259ms total)
T3EAC 1572:571 JLINK_WriteReg(R13 (SP), 0x10000FE0)  returns 0x00 (0000ms, 12259ms total)
T3EAC 1572:571 JLINK_WriteReg(R14, 0x10000001)  returns 0x00 (0000ms, 12259ms total)
T3EAC 1572:571 JLINK_WriteReg(R15 (PC), 0x10000046)  returns 0x00 (0000ms, 12259ms total)
T3EAC 1572:571 JLINK_WriteReg(XPSR, 0x01000000)  returns 0x00 (0000ms, 12259ms total)
T3EAC 1572:572 JLINK_WriteReg(MSP, 0x10000FE0)  returns 0x00 (0000ms, 12260ms total)
T3EAC 1572:572 JLINK_WriteReg(PSP, 0x10000FE0)  returns 0x00 (0000ms, 12260ms total)
T3EAC 1572:572 JLINK_WriteReg(CFBP, 0x00000000)  returns 0x00 (0000ms, 12260ms total)
T3EAC 1572:572 JLINK_SetBPEx(Addr = 0x10000000, Type = 0xFFFFFFF2)  returns 0x00000001 (0000ms, 12260ms total)
T3EAC 1572:572 JLINK_Go() -- CPU_WriteMem(4 bytes @ 0xE0002000) -- CPU_ReadMem(4 bytes @ 0xE0001000) -- CPU_WriteMem(4 bytes @ 0xE0002008) -- CPU_WriteMem(4 bytes @ 0xE000200C) -- CPU_WriteMem(4 bytes @ 0xE0002010) -- CPU_WriteMem(4 bytes @ 0xE0002014) -- CPU_WriteMem(4 bytes @ 0xE0002018) -- CPU_WriteMem(4 bytes @ 0xE000201C) -- CPU_WriteMem(4 bytes @ 0xE0001004) (0005ms, 12265ms total)
T3EAC 1572:577 JLINK_IsHalted()  returns TRUE (0002ms, 12267ms total)
T3EAC 1572:579 JLINK_ReadReg(R15 (PC))  returns 0x10000000 (0000ms, 12265ms total)
T3EAC 1572:579 JLINK_ClrBPEx(BPHandle = 0x00000001)  returns 0x00 (0000ms, 12265ms total)
T3EAC 1572:579 JLINK_ReadReg(R0)  returns 0x00000000 (0000ms, 12265ms total)
T3EAC 1572:579 JLINK_WriteReg(R0, 0x1A000000)  returns 0x00 (0000ms, 12265ms total)
T3EAC 1572:579 JLINK_WriteReg(R1, 0x00002000)  returns 0x00 (0000ms, 12265ms total)
T3EAC 1572:579 JLINK_WriteReg(R2, 0x000000FF)  returns 0x00 (0000ms, 12265ms total)
T3EAC 1572:579 JLINK_WriteReg(R3, 0x00000000)  returns 0x00 (0000ms, 12265ms total)
T3EAC 1572:579 JLINK_WriteReg(R4, 0x00000000)  returns 0x00 (0000ms, 12265ms total)
T3EAC 1572:579 JLINK_WriteReg(R5, 0x00000000)  returns 0x00 (0000ms, 12265ms total)
T3EAC 1572:579 JLINK_WriteReg(R6, 0x00000000)  returns 0x00 (0000ms, 12265ms total)
T3EAC 1572:579 JLINK_WriteReg(R7, 0x00000000)  returns 0x00 (0000ms, 12265ms total)
T3EAC 1572:579 JLINK_WriteReg(R8, 0x00000000)  returns 0x00 (0000ms, 12265ms total)
T3EAC 1572:579 JLINK_WriteReg(R9, 0x100001BC)  returns 0x00 (0000ms, 12265ms total)
T3EAC 1572:579 JLINK_WriteReg(R10, 0x00000000)  returns 0x00 (0001ms, 12266ms total)
T3EAC 1572:580 JLINK_WriteReg(R11, 0x00000000)  returns 0x00 (0000ms, 12266ms total)
T3EAC 1572:580 JLINK_WriteReg(R12, 0x00000000)  returns 0x00 (0000ms, 12266ms total)
T3EAC 1572:580 JLINK_WriteReg(R13 (SP), 0x10000FE0)  returns 0x00 (0000ms, 12266ms total)
T3EAC 1572:580 JLINK_WriteReg(R14, 0x10000001)  returns 0x00 (0000ms, 12266ms total)
T3EAC 1572:580 JLINK_WriteReg(R15 (PC), 0x10000020)  returns 0x00 (0000ms, 12266ms total)
T3EAC 1572:580 JLINK_WriteReg(XPSR, 0x01000000)  returns 0x00 (0000ms, 12266ms total)
T3EAC 1572:580 JLINK_WriteReg(MSP, 0x10000FE0)  returns 0x00 (0000ms, 12266ms total)
T3EAC 1572:580 JLINK_WriteReg(PSP, 0x10000FE0)  returns 0x00 (0000ms, 12266ms total)
T3EAC 1572:580 JLINK_WriteReg(CFBP, 0x00000000)  returns 0x00 (0000ms, 12266ms total)
T3EAC 1572:580 JLINK_SetBPEx(Addr = 0x10000000, Type = 0xFFFFFFF2)  returns 0x00000002 (0000ms, 12266ms total)
T3EAC 1572:580 JLINK_Go() -- CPU_WriteMem(4 bytes @ 0xE0002000) -- CPU_ReadMem(4 bytes @ 0xE0001000) (0003ms, 12269ms total)
T3EAC 1572:583 JLINK_IsHalted()  returns TRUE (0002ms, 12271ms total)
T3EAC 1572:585 JLINK_ReadReg(R15 (PC))  returns 0x10000000 (0000ms, 12269ms total)
T3EAC 1572:585 JLINK_ClrBPEx(BPHandle = 0x00000002)  returns 0x00 (0000ms, 12269ms total)
T3EAC 1572:585 JLINK_ReadReg(R0)  returns 0x00000001 (0000ms, 12269ms total)
T3EAC 1572:585 JLINK_WriteReg(R0, 0x1A000000)  returns 0x00 (0000ms, 12269ms total)
T3EAC 1572:585 JLINK_WriteReg(R1, 0x00002000)  returns 0x00 (0000ms, 12269ms total)
T3EAC 1572:585 JLINK_WriteReg(R2, 0x000000FF)  returns 0x00 (0000ms, 12269ms total)
T3EAC 1572:585 JLINK_WriteReg(R3, 0x00000000)  returns 0x00 (0000ms, 12269ms total)
T3EAC 1572:585 JLINK_WriteReg(R4, 0x00000000)  returns 0x00 (0000ms, 12269ms total)
T3EAC 1572:585 JLINK_WriteReg(R5, 0x00000000)  returns 0x00 (0000ms, 12269ms total)
T3EAC 1572:585 JLINK_WriteReg(R6, 0x00000000)  returns 0x00 (0000ms, 12269ms total)
T3EAC 1572:585 JLINK_WriteReg(R7, 0x00000000)  returns 0x00 (0000ms, 12269ms total)
T3EAC 1572:585 JLINK_WriteReg(R8, 0x00000000)  returns 0x00 (0000ms, 12269ms total)
T3EAC 1572:585 JLINK_WriteReg(R9, 0x100001BC)  returns 0x00 (0000ms, 12269ms total)
T3EAC 1572:585 JLINK_WriteReg(R10, 0x00000000)  returns 0x00 (0000ms, 12269ms total)
T3EAC 1572:585 JLINK_WriteReg(R11, 0x00000000)  returns 0x00 (0000ms, 12269ms total)
T3EAC 1572:585 JLINK_WriteReg(R12, 0x00000000)  returns 0x00 (0000ms, 12269ms total)
T3EAC 1572:585 JLINK_WriteReg(R13 (SP), 0x10000FE0)  returns 0x00 (0000ms, 12269ms total)
T3EAC 1572:585 JLINK_WriteReg(R14, 0x10000001)  returns 0x00 (0000ms, 12269ms total)
T3EAC 1572:586 JLINK_WriteReg(R15 (PC), 0x100000EE)  returns 0x00 (0000ms, 12269ms total)
T3EAC 1572:586 JLINK_WriteReg(XPSR, 0x01000000)  returns 0x00 (0000ms, 12269ms total)
T3EAC 1572:586 JLINK_WriteReg(MSP, 0x10000FE0)  returns 0x00 (0000ms, 12269ms total)
T3EAC 1572:586 JLINK_WriteReg(PSP, 0x10000FE0)  returns 0x00 (0000ms, 12269ms total)
T3EAC 1572:586 JLINK_WriteReg(CFBP, 0x00000000)  returns 0x00 (0000ms, 12269ms total)
T3EAC 1572:586 JLINK_SetBPEx(Addr = 0x10000000, Type = 0xFFFFFFF2)  returns 0x00000003 (0000ms, 12269ms total)
T3EAC 1572:586 JLINK_Go() -- CPU_WriteMem(4 bytes @ 0xE0002000) -- CPU_ReadMem(4 bytes @ 0xE0001000) (0003ms, 12272ms total)
T3EAC 1572:589 JLINK_IsHalted()  returns FALSE (0000ms, 12272ms total)
T3EAC 1572:644 JLINK_IsHalted()  returns FALSE (0000ms, 12272ms total)
T3EAC 1572:646 JLINK_IsHalted()  returns FALSE (0000ms, 12272ms total)
T3EAC 1572:648 JLINK_IsHalted()  returns FALSE (0000ms, 12272ms total)
T3EAC 1572:650 JLINK_IsHalted()  returns FALSE (0000ms, 12272ms total)
T3EAC 1572:652 JLINK_IsHalted()  returns FALSE (0000ms, 12272ms total)
T3EAC 1572:654 JLINK_IsHalted()  returns FALSE (0000ms, 12272ms total)
T3EAC 1572:656 JLINK_IsHalted()  returns FALSE (0000ms, 12272ms total)
T3EAC 1572:658 JLINK_IsHalted()  returns FALSE (0000ms, 12272ms total)
T3EAC 1572:660 JLINK_IsHalted()  returns FALSE (0000ms, 12272ms total)
T3EAC 1572:662 JLINK_IsHalted()  returns FALSE (0000ms, 12272ms total)
T3EAC 1572:664 JLINK_IsHalted()  returns FALSE (0000ms, 12272ms total)
T3EAC 1572:666 JLINK_IsHalted()  returns FALSE (0000ms, 12272ms total)
T3EAC 1572:672 JLINK_IsHalted()  returns FALSE (0000ms, 12272ms total)
T3EAC 1572:674 JLINK_IsHalted()  returns FALSE (0000ms, 12272ms total)
T3EAC 1572:676 JLINK_IsHalted()  returns FALSE (0000ms, 12272ms total)
T3EAC 1572:678 JLINK_IsHalted()  returns FALSE (0000ms, 12272ms total)
T3EAC 1572:680 JLINK_IsHalted()  returns FALSE (0000ms, 12272ms total)
T3EAC 1572:682 JLINK_IsHalted()  returns FALSE (0000ms, 12272ms total)
T3EAC 1572:684 JLINK_IsHalted()  returns FALSE (0000ms, 12272ms total)
T3EAC 1572:686 JLINK_IsHalted()  returns FALSE (0000ms, 12272ms total)
T3EAC 1572:688 JLINK_IsHalted()  returns FALSE (0000ms, 12272ms total)
T3EAC 1572:691 JLINK_IsHalted()  returns TRUE (0002ms, 12274ms total)
T3EAC 1572:693 JLINK_ReadReg(R15 (PC))  returns 0x10000000 (0000ms, 12274ms total)
T3EAC 1572:693 JLINK_ClrBPEx(BPHandle = 0x00000003)  returns 0x00 (0000ms, 12274ms total)
T3EAC 1572:693 JLINK_ReadReg(R0)  returns 0x00000000 (0000ms, 12274ms total)
T3EAC 1572:694 JLINK_WriteReg(R0, 0x1A002000)  returns 0x00 (0000ms, 12274ms total)
T3EAC 1572:694 JLINK_WriteReg(R1, 0x00002000)  returns 0x00 (0000ms, 12274ms total)
T3EAC 1572:694 JLINK_WriteReg(R2, 0x000000FF)  returns 0x00 (0000ms, 12274ms total)
T3EAC 1572:694 JLINK_WriteReg(R3, 0x00000000)  returns 0x00 (0000ms, 12274ms total)
T3EAC 1572:694 JLINK_WriteReg(R4, 0x00000000)  returns 0x00 (0000ms, 12274ms total)
T3EAC 1572:694 JLINK_WriteReg(R5, 0x00000000)  returns 0x00 (0000ms, 12274ms total)
T3EAC 1572:694 JLINK_WriteReg(R6, 0x00000000)  returns 0x00 (0000ms, 12274ms total)
T3EAC 1572:694 JLINK_WriteReg(R7, 0x00000000)  returns 0x00 (0000ms, 12274ms total)
T3EAC 1572:694 JLINK_WriteReg(R8, 0x00000000)  returns 0x00 (0000ms, 12274ms total)
T3EAC 1572:694 JLINK_WriteReg(R9, 0x100001BC)  returns 0x00 (0000ms, 12274ms total)
T3EAC 1572:694 JLINK_WriteReg(R10, 0x00000000)  returns 0x00 (0000ms, 12274ms total)
T3EAC 1572:694 JLINK_WriteReg(R11, 0x00000000)  returns 0x00 (0000ms, 12274ms total)
T3EAC 1572:694 JLINK_WriteReg(R12, 0x00000000)  returns 0x00 (0000ms, 12274ms total)
T3EAC 1572:694 JLINK_WriteReg(R13 (SP), 0x10000FE0)  returns 0x00 (0000ms, 12274ms total)
T3EAC 1572:694 JLINK_WriteReg(R14, 0x10000001)  returns 0x00 (0000ms, 12274ms total)
T3EAC 1572:694 JLINK_WriteReg(R15 (PC), 0x10000020)  returns 0x00 (0000ms, 12274ms total)
T3EAC 1572:694 JLINK_WriteReg(XPSR, 0x01000000)  returns 0x00 (0000ms, 12274ms total)
T3EAC 1572:694 JLINK_WriteReg(MSP, 0x10000FE0)  returns 0x00 (0000ms, 12274ms total)
T3EAC 1572:694 JLINK_WriteReg(PSP, 0x10000FE0)  returns 0x00 (0000ms, 12274ms total)
T3EAC 1572:694 JLINK_WriteReg(CFBP, 0x00000000)  returns 0x00 (0000ms, 12274ms total)
T3EAC 1572:694 JLINK_SetBPEx(Addr = 0x10000000, Type = 0xFFFFFFF2)  returns 0x00000004 (0000ms, 12274ms total)
T3EAC 1572:694 JLINK_Go() -- CPU_WriteMem(4 bytes @ 0xE0002000) -- CPU_ReadMem(4 bytes @ 0xE0001000) (0003ms, 12277ms total)
T3EAC 1572:697 JLINK_IsHalted()  returns TRUE (0002ms, 12279ms total)
T3EAC 1572:699 JLINK_ReadReg(R15 (PC))  returns 0x10000000 (0000ms, 12277ms total)
T3EAC 1572:699 JLINK_ClrBPEx(BPHandle = 0x00000004)  returns 0x00 (0000ms, 12277ms total)
T3EAC 1572:699 JLINK_ReadReg(R0)  returns 0x00000001 (0000ms, 12277ms total)
T3EAC 1572:699 JLINK_WriteReg(R0, 0x1A002000)  returns 0x00 (0000ms, 12277ms total)
T3EAC 1572:699 JLINK_WriteReg(R1, 0x00002000)  returns 0x00 (0000ms, 12277ms total)
T3EAC 1572:699 JLINK_WriteReg(R2, 0x000000FF)  returns 0x00 (0000ms, 12277ms total)
T3EAC 1572:699 JLINK_WriteReg(R3, 0x00000000)  returns 0x00 (0000ms, 12277ms total)
T3EAC 1572:699 JLINK_WriteReg(R4, 0x00000000)  returns 0x00 (0000ms, 12277ms total)
T3EAC 1572:699 JLINK_WriteReg(R5, 0x00000000)  returns 0x00 (0000ms, 12277ms total)
T3EAC 1572:699 JLINK_WriteReg(R6, 0x00000000)  returns 0x00 (0000ms, 12277ms total)
T3EAC 1572:699 JLINK_WriteReg(R7, 0x00000000)  returns 0x00 (0000ms, 12277ms total)
T3EAC 1572:699 JLINK_WriteReg(R8, 0x00000000)  returns 0x00 (0000ms, 12277ms total)
T3EAC 1572:699 JLINK_WriteReg(R9, 0x100001BC)  returns 0x00 (0000ms, 12277ms total)
T3EAC 1572:699 JLINK_WriteReg(R10, 0x00000000)  returns 0x00 (0000ms, 12277ms total)
T3EAC 1572:699 JLINK_WriteReg(R11, 0x00000000)  returns 0x00 (0000ms, 12277ms total)
T3EAC 1572:699 JLINK_WriteReg(R12, 0x00000000)  returns 0x00 (0000ms, 12277ms total)
T3EAC 1572:699 JLINK_WriteReg(R13 (SP), 0x10000FE0)  returns 0x00 (0000ms, 12277ms total)
T3EAC 1572:699 JLINK_WriteReg(R14, 0x10000001)  returns 0x00 (0000ms, 12277ms total)
T3EAC 1572:699 JLINK_WriteReg(R15 (PC), 0x100000EE)  returns 0x00 (0000ms, 12277ms total)
T3EAC 1572:699 JLINK_WriteReg(XPSR, 0x01000000)  returns 0x00 (0000ms, 12277ms total)
T3EAC 1572:699 JLINK_WriteReg(MSP, 0x10000FE0)  returns 0x00 (0000ms, 12277ms total)
T3EAC 1572:699 JLINK_WriteReg(PSP, 0x10000FE0)  returns 0x00 (0000ms, 12277ms total)
T3EAC 1572:699 JLINK_WriteReg(CFBP, 0x00000000)  returns 0x00 (0000ms, 12277ms total)
T3EAC 1572:699 JLINK_SetBPEx(Addr = 0x10000000, Type = 0xFFFFFFF2)  returns 0x00000005 (0000ms, 12277ms total)
T3EAC 1572:699 JLINK_Go() -- CPU_WriteMem(4 bytes @ 0xE0002000) -- CPU_ReadMem(4 bytes @ 0xE0001000) (0003ms, 12280ms total)
T3EAC 1572:702 JLINK_IsHalted()  returns FALSE (0001ms, 12281ms total)
T3EAC 1572:707 JLINK_IsHalted()  returns FALSE (0000ms, 12280ms total)
T3EAC 1572:709 JLINK_IsHalted()  returns FALSE (0000ms, 12280ms total)
T3EAC 1572:711 JLINK_IsHalted()  returns FALSE (0000ms, 12280ms total)
T3EAC 1572:713 JLINK_IsHalted()  returns FALSE (0000ms, 12280ms total)
T3EAC 1572:715 JLINK_IsHalted()  returns FALSE (0000ms, 12280ms total)
T3EAC 1572:717 JLINK_IsHalted()  returns FALSE (0000ms, 12280ms total)
T3EAC 1572:719 JLINK_IsHalted()  returns FALSE (0000ms, 12280ms total)
T3EAC 1572:721 JLINK_IsHalted()  returns FALSE (0000ms, 12280ms total)
T3EAC 1572:723 JLINK_IsHalted()  returns FALSE (0000ms, 12280ms total)
T3EAC 1572:725 JLINK_IsHalted()  returns FALSE (0000ms, 12280ms total)
T3EAC 1572:727 JLINK_IsHalted()  returns FALSE (0000ms, 12280ms total)
T3EAC 1572:729 JLINK_IsHalted()  returns FALSE (0000ms, 12280ms total)
T3EAC 1572:731 JLINK_IsHalted()  returns FALSE (0000ms, 12280ms total)
T3EAC 1572:733 JLINK_IsHalted()  returns FALSE (0000ms, 12280ms total)
T3EAC 1572:734 JLINK_IsHalted()  returns FALSE (0000ms, 12280ms total)
T3EAC 1572:736 JLINK_IsHalted()  returns FALSE (0000ms, 12280ms total)
T3EAC 1572:738 JLINK_IsHalted()  returns FALSE (0000ms, 12280ms total)
T3EAC 1572:740 JLINK_IsHalted()  returns FALSE (0000ms, 12280ms total)
T3EAC 1572:742 JLINK_IsHalted()  returns FALSE (0000ms, 12280ms total)
T3EAC 1572:744 JLINK_IsHalted()  returns FALSE (0000ms, 12280ms total)
T3EAC 1572:746 JLINK_IsHalted()  returns FALSE (0000ms, 12280ms total)
T3EAC 1572:748 JLINK_IsHalted()  returns FALSE (0000ms, 12280ms total)
T3EAC 1572:750 JLINK_IsHalted()  returns FALSE (0000ms, 12280ms total)
T3EAC 1572:752 JLINK_IsHalted()  returns FALSE (0000ms, 12280ms total)
T3EAC 1572:754 JLINK_IsHalted()  returns FALSE (0000ms, 12280ms total)
T3EAC 1572:756 JLINK_IsHalted()  returns FALSE (0000ms, 12280ms total)
T3EAC 1572:758 JLINK_IsHalted()  returns FALSE (0000ms, 12280ms total)
T3EAC 1572:760 JLINK_IsHalted()  returns FALSE (0000ms, 12280ms total)
T3EAC 1572:762 JLINK_IsHalted()  returns FALSE (0000ms, 12280ms total)
T3EAC 1572:764 JLINK_IsHalted()  returns FALSE (0000ms, 12280ms total)
T3EAC 1572:766 JLINK_IsHalted()  returns FALSE (0000ms, 12280ms total)
T3EAC 1572:768 JLINK_IsHalted()  returns FALSE (0000ms, 12280ms total)
T3EAC 1572:770 JLINK_IsHalted()  returns FALSE (0000ms, 12280ms total)
T3EAC 1572:772 JLINK_IsHalted()  returns FALSE (0000ms, 12280ms total)
T3EAC 1572:774 JLINK_IsHalted()  returns FALSE (0000ms, 12280ms total)
T3EAC 1572:775 JLINK_IsHalted()  returns FALSE (0000ms, 12280ms total)
T3EAC 1572:780 JLINK_IsHalted()  returns FALSE (0000ms, 12280ms total)
T3EAC 1572:782 JLINK_IsHalted()  returns FALSE (0000ms, 12280ms total)
T3EAC 1572:784 JLINK_IsHalted()  returns FALSE (0000ms, 12280ms total)
T3EAC 1572:786 JLINK_IsHalted()  returns FALSE (0000ms, 12280ms total)
T3EAC 1572:788 JLINK_IsHalted()  returns FALSE (0000ms, 12280ms total)
T3EAC 1572:790 JLINK_IsHalted()  returns FALSE (0000ms, 12280ms total)
T3EAC 1572:792 JLINK_IsHalted()  returns FALSE (0000ms, 12280ms total)
T3EAC 1572:794 JLINK_IsHalted()  returns FALSE (0000ms, 12280ms total)
T3EAC 1572:796 JLINK_IsHalted()  returns FALSE (0000ms, 12280ms total)
T3EAC 1572:798 JLINK_IsHalted()  returns FALSE (0000ms, 12280ms total)
T3EAC 1572:800 JLINK_IsHalted()  returns FALSE (0000ms, 12280ms total)
T3EAC 1572:802 JLINK_IsHalted()  returns FALSE (0000ms, 12280ms total)
T3EAC 1572:804 JLINK_IsHalted()  returns TRUE (0003ms, 12283ms total)
T3EAC 1572:807 JLINK_ReadReg(R15 (PC))  returns 0x10000000 (0000ms, 12280ms total)
T3EAC 1572:807 JLINK_ClrBPEx(BPHandle = 0x00000005)  returns 0x00 (0000ms, 12280ms total)
T3EAC 1572:807 JLINK_ReadReg(R0)  returns 0x00000000 (0000ms, 12280ms total)
T3EAC 1572:807 JLINK_WriteReg(R0, 0x1A004000)  returns 0x00 (0000ms, 12280ms total)
T3EAC 1572:807 JLINK_WriteReg(R1, 0x00002000)  returns 0x00 (0000ms, 12280ms total)
T3EAC 1572:807 JLINK_WriteReg(R2, 0x000000FF)  returns 0x00 (0000ms, 12280ms total)
T3EAC 1572:807 JLINK_WriteReg(R3, 0x00000000)  returns 0x00 (0000ms, 12280ms total)
T3EAC 1572:807 JLINK_WriteReg(R4, 0x00000000)  returns 0x00 (0000ms, 12280ms total)
T3EAC 1572:807 JLINK_WriteReg(R5, 0x00000000)  returns 0x00 (0000ms, 12280ms total)
T3EAC 1572:807 JLINK_WriteReg(R6, 0x00000000)  returns 0x00 (0000ms, 12280ms total)
T3EAC 1572:807 JLINK_WriteReg(R7, 0x00000000)  returns 0x00 (0000ms, 12280ms total)
T3EAC 1572:807 JLINK_WriteReg(R8, 0x00000000)  returns 0x00 (0000ms, 12280ms total)
T3EAC 1572:807 JLINK_WriteReg(R9, 0x100001BC)  returns 0x00 (0000ms, 12280ms total)
T3EAC 1572:807 JLINK_WriteReg(R10, 0x00000000)  returns 0x00 (0000ms, 12280ms total)
T3EAC 1572:807 JLINK_WriteReg(R11, 0x00000000)  returns 0x00 (0000ms, 12280ms total)
T3EAC 1572:807 JLINK_WriteReg(R12, 0x00000000)  returns 0x00 (0000ms, 12280ms total)
T3EAC 1572:807 JLINK_WriteReg(R13 (SP), 0x10000FE0)  returns 0x00 (0000ms, 12280ms total)
T3EAC 1572:807 JLINK_WriteReg(R14, 0x10000001)  returns 0x00 (0000ms, 12280ms total)
T3EAC 1572:807 JLINK_WriteReg(R15 (PC), 0x10000020)  returns 0x00 (0000ms, 12280ms total)
T3EAC 1572:807 JLINK_WriteReg(XPSR, 0x01000000)  returns 0x00 (0000ms, 12280ms total)
T3EAC 1572:807 JLINK_WriteReg(MSP, 0x10000FE0)  returns 0x00 (0000ms, 12280ms total)
T3EAC 1572:807 JLINK_WriteReg(PSP, 0x10000FE0)  returns 0x00 (0000ms, 12280ms total)
T3EAC 1572:807 JLINK_WriteReg(CFBP, 0x00000000)  returns 0x00 (0000ms, 12280ms total)
T3EAC 1572:807 JLINK_SetBPEx(Addr = 0x10000000, Type = 0xFFFFFFF2)  returns 0x00000006 (0000ms, 12280ms total)
T3EAC 1572:807 JLINK_Go() -- CPU_WriteMem(4 bytes @ 0xE0002000) -- CPU_ReadMem(4 bytes @ 0xE0001000) (0003ms, 12283ms total)
T3EAC 1572:810 JLINK_IsHalted()  returns TRUE (0003ms, 12286ms total)
T3EAC 1572:813 JLINK_ReadReg(R15 (PC))  returns 0x10000000 (0000ms, 12283ms total)
T3EAC 1572:813 JLINK_ClrBPEx(BPHandle = 0x00000006)  returns 0x00 (0000ms, 12283ms total)
T3EAC 1572:813 JLINK_ReadReg(R0)  returns 0x00000001 (0000ms, 12283ms total)
T3EAC 1572:813 JLINK_WriteReg(R0, 0x1A004000)  returns 0x00 (0000ms, 12283ms total)
T3EAC 1572:813 JLINK_WriteReg(R1, 0x00002000)  returns 0x00 (0000ms, 12283ms total)
T3EAC 1572:813 JLINK_WriteReg(R2, 0x000000FF)  returns 0x00 (0000ms, 12283ms total)
T3EAC 1572:813 JLINK_WriteReg(R3, 0x00000000)  returns 0x00 (0000ms, 12283ms total)
T3EAC 1572:813 JLINK_WriteReg(R4, 0x00000000)  returns 0x00 (0000ms, 12283ms total)
T3EAC 1572:813 JLINK_WriteReg(R5, 0x00000000)  returns 0x00 (0000ms, 12283ms total)
T3EAC 1572:813 JLINK_WriteReg(R6, 0x00000000)  returns 0x00 (0000ms, 12283ms total)
T3EAC 1572:813 JLINK_WriteReg(R7, 0x00000000)  returns 0x00 (0000ms, 12283ms total)
T3EAC 1572:813 JLINK_WriteReg(R8, 0x00000000)  returns 0x00 (0000ms, 12283ms total)
T3EAC 1572:813 JLINK_WriteReg(R9, 0x100001BC)  returns 0x00 (0000ms, 12283ms total)
T3EAC 1572:813 JLINK_WriteReg(R10, 0x00000000)  returns 0x00 (0000ms, 12283ms total)
T3EAC 1572:813 JLINK_WriteReg(R11, 0x00000000)  returns 0x00 (0000ms, 12283ms total)
T3EAC 1572:813 JLINK_WriteReg(R12, 0x00000000)  returns 0x00 (0000ms, 12283ms total)
T3EAC 1572:813 JLINK_WriteReg(R13 (SP), 0x10000FE0)  returns 0x00 (0000ms, 12283ms total)
T3EAC 1572:813 JLINK_WriteReg(R14, 0x10000001)  returns 0x00 (0000ms, 12283ms total)
T3EAC 1572:813 JLINK_WriteReg(R15 (PC), 0x100000EE)  returns 0x00 (0000ms, 12283ms total)
T3EAC 1572:813 JLINK_WriteReg(XPSR, 0x01000000)  returns 0x00 (0000ms, 12283ms total)
T3EAC 1572:813 JLINK_WriteReg(MSP, 0x10000FE0)  returns 0x00 (0000ms, 12283ms total)
T3EAC 1572:813 JLINK_WriteReg(PSP, 0x10000FE0)  returns 0x00 (0000ms, 12283ms total)
T3EAC 1572:813 JLINK_WriteReg(CFBP, 0x00000000)  returns 0x00 (0000ms, 12283ms total)
T3EAC 1572:813 JLINK_SetBPEx(Addr = 0x10000000, Type = 0xFFFFFFF2)  returns 0x00000007 (0000ms, 12283ms total)
T3EAC 1572:813 JLINK_Go() -- CPU_WriteMem(4 bytes @ 0xE0002000) -- CPU_ReadMem(4 bytes @ 0xE0001000) (0003ms, 12286ms total)
T3EAC 1572:816 JLINK_IsHalted()  returns FALSE (0001ms, 12287ms total)
T3EAC 1572:820 JLINK_IsHalted()  returns FALSE (0000ms, 12286ms total)
T3EAC 1572:822 JLINK_IsHalted()  returns FALSE (0000ms, 12286ms total)
T3EAC 1572:824 JLINK_IsHalted()  returns FALSE (0000ms, 12286ms total)
T3EAC 1572:826 JLINK_IsHalted()  returns FALSE (0000ms, 12286ms total)
T3EAC 1572:828 JLINK_IsHalted()  returns FALSE (0000ms, 12286ms total)
T3EAC 1572:833 JLINK_IsHalted()  returns FALSE (0000ms, 12286ms total)
T3EAC 1572:835 JLINK_IsHalted()  returns FALSE (0000ms, 12286ms total)
T3EAC 1572:837 JLINK_IsHalted()  returns FALSE (0000ms, 12286ms total)
T3EAC 1572:839 JLINK_IsHalted()  returns FALSE (0000ms, 12286ms total)
T3EAC 1572:841 JLINK_IsHalted()  returns FALSE (0000ms, 12286ms total)
T3EAC 1572:843 JLINK_IsHalted()  returns FALSE (0000ms, 12286ms total)
T3EAC 1572:845 JLINK_IsHalted()  returns FALSE (0000ms, 12286ms total)
T3EAC 1572:847 JLINK_IsHalted()  returns FALSE (0000ms, 12286ms total)
T3EAC 1572:849 JLINK_IsHalted()  returns FALSE (0000ms, 12286ms total)
T3EAC 1572:851 JLINK_IsHalted()  returns FALSE (0000ms, 12286ms total)
T3EAC 1572:853 JLINK_IsHalted()  returns FALSE (0000ms, 12286ms total)
T3EAC 1572:855 JLINK_IsHalted()  returns FALSE (0000ms, 12286ms total)
T3EAC 1572:857 JLINK_IsHalted()  returns FALSE (0000ms, 12286ms total)
T3EAC 1572:859 JLINK_IsHalted()  returns FALSE (0000ms, 12286ms total)
T3EAC 1572:861 JLINK_IsHalted()  returns FALSE (0000ms, 12286ms total)
T3EAC 1572:863 JLINK_IsHalted()  returns FALSE (0000ms, 12286ms total)
T3EAC 1572:865 JLINK_IsHalted()  returns FALSE (0000ms, 12286ms total)
T3EAC 1572:867 JLINK_IsHalted()  returns FALSE (0000ms, 12286ms total)
T3EAC 1572:869 JLINK_IsHalted()  returns FALSE (0000ms, 12286ms total)
T3EAC 1572:871 JLINK_IsHalted()  returns FALSE (0000ms, 12286ms total)
T3EAC 1572:873 JLINK_IsHalted()  returns FALSE (0000ms, 12286ms total)
T3EAC 1572:875 JLINK_IsHalted()  returns FALSE (0000ms, 12286ms total)
T3EAC 1572:877 JLINK_IsHalted()  returns FALSE (0000ms, 12286ms total)
T3EAC 1572:879 JLINK_IsHalted()  returns FALSE (0000ms, 12286ms total)
T3EAC 1572:881 JLINK_IsHalted()  returns FALSE (0000ms, 12286ms total)
T3EAC 1572:882 JLINK_IsHalted()  returns FALSE (0000ms, 12286ms total)
T3EAC 1572:884 JLINK_IsHalted()  returns FALSE (0000ms, 12286ms total)
T3EAC 1572:886 JLINK_IsHalted()  returns FALSE (0000ms, 12286ms total)
T3EAC 1572:888 JLINK_IsHalted()  returns FALSE (0000ms, 12286ms total)
T3EAC 1572:890 JLINK_IsHalted()  returns FALSE (0000ms, 12286ms total)
T3EAC 1572:892 JLINK_IsHalted()  returns FALSE (0000ms, 12286ms total)
T3EAC 1572:894 JLINK_IsHalted()  returns FALSE (0000ms, 12286ms total)
T3EAC 1572:896 JLINK_IsHalted()  returns FALSE (0000ms, 12286ms total)
T3EAC 1572:898 JLINK_IsHalted()  returns FALSE (0000ms, 12286ms total)
T3EAC 1572:900 JLINK_IsHalted()  returns FALSE (0000ms, 12286ms total)
T3EAC 1572:902 JLINK_IsHalted()  returns FALSE (0000ms, 12286ms total)
T3EAC 1572:904 JLINK_IsHalted()  returns FALSE (0000ms, 12286ms total)
T3EAC 1572:906 JLINK_IsHalted()  returns FALSE (0000ms, 12286ms total)
T3EAC 1572:908 JLINK_IsHalted()  returns FALSE (0000ms, 12286ms total)
T3EAC 1572:910 JLINK_IsHalted()  returns FALSE (0000ms, 12286ms total)
T3EAC 1572:912 JLINK_IsHalted()  returns FALSE (0000ms, 12286ms total)
T3EAC 1572:914 JLINK_IsHalted()  returns FALSE (0000ms, 12286ms total)
T3EAC 1572:917 JLINK_IsHalted()  returns TRUE (0002ms, 12288ms total)
T3EAC 1572:919 JLINK_ReadReg(R15 (PC))  returns 0x10000000 (0000ms, 12286ms total)
T3EAC 1572:919 JLINK_ClrBPEx(BPHandle = 0x00000007)  returns 0x00 (0000ms, 12286ms total)
T3EAC 1572:919 JLINK_ReadReg(R0)  returns 0x00000000 (0000ms, 12286ms total)
T3EAC 1572:919 JLINK_WriteReg(R0, 0x1A006000)  returns 0x00 (0000ms, 12286ms total)
T3EAC 1572:919 JLINK_WriteReg(R1, 0x00002000)  returns 0x00 (0000ms, 12286ms total)
T3EAC 1572:919 JLINK_WriteReg(R2, 0x000000FF)  returns 0x00 (0000ms, 12286ms total)
T3EAC 1572:919 JLINK_WriteReg(R3, 0x00000000)  returns 0x00 (0000ms, 12286ms total)
T3EAC 1572:919 JLINK_WriteReg(R4, 0x00000000)  returns 0x00 (0000ms, 12286ms total)
T3EAC 1572:919 JLINK_WriteReg(R5, 0x00000000)  returns 0x00 (0000ms, 12286ms total)
T3EAC 1572:919 JLINK_WriteReg(R6, 0x00000000)  returns 0x00 (0000ms, 12286ms total)
T3EAC 1572:919 JLINK_WriteReg(R7, 0x00000000)  returns 0x00 (0000ms, 12286ms total)
T3EAC 1572:919 JLINK_WriteReg(R8, 0x00000000)  returns 0x00 (0000ms, 12286ms total)
T3EAC 1572:919 JLINK_WriteReg(R9, 0x100001BC)  returns 0x00 (0000ms, 12286ms total)
T3EAC 1572:919 JLINK_WriteReg(R10, 0x00000000)  returns 0x00 (0000ms, 12286ms total)
T3EAC 1572:919 JLINK_WriteReg(R11, 0x00000000)  returns 0x00 (0000ms, 12286ms total)
T3EAC 1572:919 JLINK_WriteReg(R12, 0x00000000)  returns 0x00 (0000ms, 12286ms total)
T3EAC 1572:919 JLINK_WriteReg(R13 (SP), 0x10000FE0)  returns 0x00 (0000ms, 12286ms total)
T3EAC 1572:919 JLINK_WriteReg(R14, 0x10000001)  returns 0x00 (0000ms, 12286ms total)
T3EAC 1572:919 JLINK_WriteReg(R15 (PC), 0x10000020)  returns 0x00 (0000ms, 12286ms total)
T3EAC 1572:919 JLINK_WriteReg(XPSR, 0x01000000)  returns 0x00 (0000ms, 12286ms total)
T3EAC 1572:919 JLINK_WriteReg(MSP, 0x10000FE0)  returns 0x00 (0000ms, 12286ms total)
T3EAC 1572:919 JLINK_WriteReg(PSP, 0x10000FE0)  returns 0x00 (0000ms, 12286ms total)
T3EAC 1572:919 JLINK_WriteReg(CFBP, 0x00000000)  returns 0x00 (0000ms, 12286ms total)
T3EAC 1572:919 JLINK_SetBPEx(Addr = 0x10000000, Type = 0xFFFFFFF2)  returns 0x00000008 (0000ms, 12286ms total)
T3EAC 1572:919 JLINK_Go() -- CPU_WriteMem(4 bytes @ 0xE0002000) -- CPU_ReadMem(4 bytes @ 0xE0001000) (0003ms, 12289ms total)
T3EAC 1572:922 JLINK_IsHalted()  returns TRUE (0002ms, 12291ms total)
T3EAC 1572:924 JLINK_ReadReg(R15 (PC))  returns 0x10000000 (0000ms, 12289ms total)
T3EAC 1572:924 JLINK_ClrBPEx(BPHandle = 0x00000008)  returns 0x00 (0000ms, 12289ms total)
T3EAC 1572:924 JLINK_ReadReg(R0)  returns 0x00000001 (0000ms, 12289ms total)
T3EAC 1572:924 JLINK_WriteReg(R0, 0x1A006000)  returns 0x00 (0000ms, 12289ms total)
T3EAC 1572:924 JLINK_WriteReg(R1, 0x00002000)  returns 0x00 (0000ms, 12289ms total)
T3EAC 1572:925 JLINK_WriteReg(R2, 0x000000FF)  returns 0x00 (0000ms, 12290ms total)
T3EAC 1572:925 JLINK_WriteReg(R3, 0x00000000)  returns 0x00 (0000ms, 12290ms total)
T3EAC 1572:925 JLINK_WriteReg(R4, 0x00000000)  returns 0x00 (0000ms, 12290ms total)
T3EAC 1572:925 JLINK_WriteReg(R5, 0x00000000)  returns 0x00 (0000ms, 12290ms total)
T3EAC 1572:925 JLINK_WriteReg(R6, 0x00000000)  returns 0x00 (0000ms, 12290ms total)
T3EAC 1572:925 JLINK_WriteReg(R7, 0x00000000)  returns 0x00 (0000ms, 12290ms total)
T3EAC 1572:925 JLINK_WriteReg(R8, 0x00000000)  returns 0x00 (0000ms, 12290ms total)
T3EAC 1572:925 JLINK_WriteReg(R9, 0x100001BC)  returns 0x00 (0000ms, 12290ms total)
T3EAC 1572:925 JLINK_WriteReg(R10, 0x00000000)  returns 0x00 (0000ms, 12290ms total)
T3EAC 1572:925 JLINK_WriteReg(R11, 0x00000000)  returns 0x00 (0000ms, 12290ms total)
T3EAC 1572:925 JLINK_WriteReg(R12, 0x00000000)  returns 0x00 (0000ms, 12290ms total)
T3EAC 1572:925 JLINK_WriteReg(R13 (SP), 0x10000FE0)  returns 0x00 (0000ms, 12290ms total)
T3EAC 1572:925 JLINK_WriteReg(R14, 0x10000001)  returns 0x00 (0000ms, 12290ms total)
T3EAC 1572:925 JLINK_WriteReg(R15 (PC), 0x100000EE)  returns 0x00 (0000ms, 12290ms total)
T3EAC 1572:925 JLINK_WriteReg(XPSR, 0x01000000)  returns 0x00 (0000ms, 12290ms total)
T3EAC 1572:925 JLINK_WriteReg(MSP, 0x10000FE0)  returns 0x00 (0000ms, 12290ms total)
T3EAC 1572:925 JLINK_WriteReg(PSP, 0x10000FE0)  returns 0x00 (0000ms, 12290ms total)
T3EAC 1572:925 JLINK_WriteReg(CFBP, 0x00000000)  returns 0x00 (0000ms, 12290ms total)
T3EAC 1572:925 JLINK_SetBPEx(Addr = 0x10000000, Type = 0xFFFFFFF2)  returns 0x00000009 (0000ms, 12290ms total)
T3EAC 1572:925 JLINK_Go() -- CPU_WriteMem(4 bytes @ 0xE0002000) -- CPU_ReadMem(4 bytes @ 0xE0001000) (0003ms, 12293ms total)
T3EAC 1572:928 JLINK_IsHalted()  returns FALSE (0000ms, 12293ms total)
T3EAC 1572:930 JLINK_IsHalted()  returns FALSE (0000ms, 12293ms total)
T3EAC 1572:931 JLINK_IsHalted()  returns FALSE (0000ms, 12293ms total)
T3EAC 1572:933 JLINK_IsHalted()  returns FALSE (0000ms, 12293ms total)
T3EAC 1572:935 JLINK_IsHalted()  returns FALSE (0000ms, 12293ms total)
T3EAC 1572:937 JLINK_IsHalted()  returns FALSE (0000ms, 12293ms total)
T3EAC 1572:939 JLINK_IsHalted()  returns FALSE (0000ms, 12293ms total)
T3EAC 1572:941 JLINK_IsHalted()  returns FALSE (0000ms, 12293ms total)
T3EAC 1572:943 JLINK_IsHalted()  returns FALSE (0000ms, 12293ms total)
T3EAC 1572:945 JLINK_IsHalted()  returns FALSE (0000ms, 12293ms total)
T3EAC 1572:947 JLINK_IsHalted()  returns FALSE (0000ms, 12293ms total)
T3EAC 1572:949 JLINK_IsHalted()  returns FALSE (0000ms, 12293ms total)
T3EAC 1572:951 JLINK_IsHalted()  returns FALSE (0000ms, 12293ms total)
T3EAC 1572:953 JLINK_IsHalted()  returns FALSE (0000ms, 12293ms total)
T3EAC 1572:955 JLINK_IsHalted()  returns FALSE (0000ms, 12293ms total)
T3EAC 1572:957 JLINK_IsHalted()  returns FALSE (0000ms, 12293ms total)
T3EAC 1572:959 JLINK_IsHalted()  returns FALSE (0000ms, 12293ms total)
T3EAC 1572:961 JLINK_IsHalted()  returns FALSE (0000ms, 12293ms total)
T3EAC 1572:963 JLINK_IsHalted()  returns FALSE (0000ms, 12293ms total)
T3EAC 1572:966 JLINK_IsHalted()  returns FALSE (0000ms, 12293ms total)
T3EAC 1572:968 JLINK_IsHalted()  returns FALSE (0000ms, 12293ms total)
T3EAC 1572:970 JLINK_IsHalted()  returns FALSE (0000ms, 12293ms total)
T3EAC 1572:972 JLINK_IsHalted()  returns FALSE (0000ms, 12293ms total)
T3EAC 1572:974 JLINK_IsHalted()  returns FALSE (0000ms, 12293ms total)
T3EAC 1572:976 JLINK_IsHalted()  returns FALSE (0000ms, 12293ms total)
T3EAC 1572:978 JLINK_IsHalted()  returns FALSE (0000ms, 12293ms total)
T3EAC 1572:980 JLINK_IsHalted()  returns FALSE (0000ms, 12293ms total)
T3EAC 1572:982 JLINK_IsHalted()  returns FALSE (0000ms, 12293ms total)
T3EAC 1572:984 JLINK_IsHalted()  returns FALSE (0000ms, 12293ms total)
T3EAC 1572:986 JLINK_IsHalted()  returns FALSE (0000ms, 12293ms total)
T3EAC 1572:988 JLINK_IsHalted()  returns FALSE (0000ms, 12293ms total)
T3EAC 1572:990 JLINK_IsHalted()  returns FALSE (0000ms, 12293ms total)
T3EAC 1572:991 JLINK_IsHalted()  returns FALSE (0000ms, 12293ms total)
T3EAC 1572:993 JLINK_IsHalted()  returns FALSE (0000ms, 12293ms total)
T3EAC 1572:995 JLINK_IsHalted()  returns FALSE (0000ms, 12293ms total)
T3EAC 1572:997 JLINK_IsHalted()  returns FALSE (0000ms, 12293ms total)
T3EAC 1572:999 JLINK_IsHalted()  returns FALSE (0000ms, 12293ms total)
T3EAC 1573:001 JLINK_IsHalted()  returns FALSE (0000ms, 12293ms total)
T3EAC 1573:003 JLINK_IsHalted()  returns FALSE (0000ms, 12293ms total)
T3EAC 1573:005 JLINK_IsHalted()  returns FALSE (0000ms, 12293ms total)
T3EAC 1573:007 JLINK_IsHalted()  returns FALSE (0000ms, 12293ms total)
T3EAC 1573:009 JLINK_IsHalted()  returns FALSE (0000ms, 12293ms total)
T3EAC 1573:011 JLINK_IsHalted()  returns FALSE (0000ms, 12293ms total)
T3EAC 1573:013 JLINK_IsHalted()  returns FALSE (0000ms, 12293ms total)
T3EAC 1573:015 JLINK_IsHalted()  returns FALSE (0000ms, 12293ms total)
T3EAC 1573:017 JLINK_IsHalted()  returns FALSE (0000ms, 12293ms total)
T3EAC 1573:019 JLINK_IsHalted()  returns FALSE (0000ms, 12293ms total)
T3EAC 1573:021 JLINK_IsHalted()  returns FALSE (0000ms, 12293ms total)
T3EAC 1573:023 JLINK_IsHalted()  returns FALSE (0000ms, 12293ms total)
T3EAC 1573:025 JLINK_IsHalted()  returns FALSE (0000ms, 12293ms total)
T3EAC 1573:027 JLINK_IsHalted()  returns FALSE (0000ms, 12293ms total)
T3EAC 1573:029 JLINK_IsHalted()  returns TRUE (0002ms, 12295ms total)
T3EAC 1573:031 JLINK_ReadReg(R15 (PC))  returns 0x10000000 (0000ms, 12293ms total)
T3EAC 1573:031 JLINK_ClrBPEx(BPHandle = 0x00000009)  returns 0x00 (0000ms, 12293ms total)
T3EAC 1573:031 JLINK_ReadReg(R0)  returns 0x00000000 (0000ms, 12293ms total)
T3EAC 1573:031 JLINK_WriteReg(R0, 0x00000001)  returns 0x00 (0000ms, 12293ms total)
T3EAC 1573:031 JLINK_WriteReg(R1, 0x00002000)  returns 0x00 (0000ms, 12293ms total)
T3EAC 1573:031 JLINK_WriteReg(R2, 0x000000FF)  returns 0x00 (0000ms, 12293ms total)
T3EAC 1573:031 JLINK_WriteReg(R3, 0x00000000)  returns 0x00 (0000ms, 12293ms total)
T3EAC 1573:031 JLINK_WriteReg(R4, 0x00000000)  returns 0x00 (0000ms, 12293ms total)
T3EAC 1573:031 JLINK_WriteReg(R5, 0x00000000)  returns 0x00 (0000ms, 12293ms total)
T3EAC 1573:031 JLINK_WriteReg(R6, 0x00000000)  returns 0x00 (0000ms, 12293ms total)
T3EAC 1573:031 JLINK_WriteReg(R7, 0x00000000)  returns 0x00 (0000ms, 12293ms total)
T3EAC 1573:031 JLINK_WriteReg(R8, 0x00000000)  returns 0x00 (0000ms, 12293ms total)
T3EAC 1573:031 JLINK_WriteReg(R9, 0x100001BC)  returns 0x00 (0000ms, 12293ms total)
T3EAC 1573:031 JLINK_WriteReg(R10, 0x00000000)  returns 0x00 (0000ms, 12293ms total)
T3EAC 1573:031 JLINK_WriteReg(R11, 0x00000000)  returns 0x00 (0000ms, 12293ms total)
T3EAC 1573:031 JLINK_WriteReg(R12, 0x00000000)  returns 0x00 (0000ms, 12293ms total)
T3EAC 1573:031 JLINK_WriteReg(R13 (SP), 0x10000FE0)  returns 0x00 (0000ms, 12293ms total)
T3EAC 1573:031 JLINK_WriteReg(R14, 0x10000001)  returns 0x00 (0000ms, 12293ms total)
T3EAC 1573:031 JLINK_WriteReg(R15 (PC), 0x10000098)  returns 0x00 (0000ms, 12293ms total)
T3EAC 1573:031 JLINK_WriteReg(XPSR, 0x01000000)  returns 0x00 (0000ms, 12293ms total)
T3EAC 1573:031 JLINK_WriteReg(MSP, 0x10000FE0)  returns 0x00 (0000ms, 12293ms total)
T3EAC 1573:031 JLINK_WriteReg(PSP, 0x10000FE0)  returns 0x00 (0000ms, 12293ms total)
T3EAC 1573:031 JLINK_WriteReg(CFBP, 0x00000000)  returns 0x00 (0000ms, 12293ms total)
T3EAC 1573:031 JLINK_SetBPEx(Addr = 0x10000000, Type = 0xFFFFFFF2)  returns 0x0000000A (0000ms, 12293ms total)
T3EAC 1573:031 JLINK_Go() -- CPU_WriteMem(4 bytes @ 0xE0002000) -- CPU_ReadMem(4 bytes @ 0xE0001000) (0004ms, 12297ms total)
T3EAC 1573:035 JLINK_IsHalted()  returns TRUE (0002ms, 12299ms total)
T3EAC 1573:037 JLINK_ReadReg(R15 (PC))  returns 0x10000000 (0000ms, 12297ms total)
T3EAC 1573:037 JLINK_ClrBPEx(BPHandle = 0x0000000A)  returns 0x00 (0000ms, 12297ms total)
T3EAC 1573:037 JLINK_ReadReg(R0)  returns 0x00000000 (0000ms, 12297ms total)
T3EAC 1573:092 JLINK_WriteMem(0x10000000, 0x01CC Bytes, ...) - Data: 00 BE 0A E0 0D 78 2D 06 68 40 08 24 40 00 00 D3 ... -- CPU_WriteMem(460 bytes @ 0x10000000)  returns 0x1CC (0003ms, 12300ms total)
T3EAC 1573:095 JLINK_WriteReg(R0, 0x1A000000)  returns 0x00 (0000ms, 12300ms total)
T3EAC 1573:095 JLINK_WriteReg(R1, 0x00B71B00)  returns 0x00 (0000ms, 12300ms total)
T3EAC 1573:095 JLINK_WriteReg(R2, 0x00000002)  returns 0x00 (0000ms, 12300ms total)
T3EAC 1573:095 JLINK_WriteReg(R3, 0x00000000)  returns 0x00 (0000ms, 12300ms total)
T3EAC 1573:095 JLINK_WriteReg(R4, 0x00000000)  returns 0x00 (0000ms, 12300ms total)
T3EAC 1573:095 JLINK_WriteReg(R5, 0x00000000)  returns 0x00 (0000ms, 12300ms total)
T3EAC 1573:095 JLINK_WriteReg(R6, 0x00000000)  returns 0x00 (0000ms, 12300ms total)
T3EAC 1573:095 JLINK_WriteReg(R7, 0x00000000)  returns 0x00 (0000ms, 12300ms total)
T3EAC 1573:095 JLINK_WriteReg(R8, 0x00000000)  returns 0x00 (0000ms, 12300ms total)
T3EAC 1573:095 JLINK_WriteReg(R9, 0x100001BC)  returns 0x00 (0000ms, 12300ms total)
T3EAC 1573:095 JLINK_WriteReg(R10, 0x00000000)  returns 0x00 (0000ms, 12300ms total)
T3EAC 1573:095 JLINK_WriteReg(R11, 0x00000000)  returns 0x00 (0000ms, 12300ms total)
T3EAC 1573:095 JLINK_WriteReg(R12, 0x00000000)  returns 0x00 (0000ms, 12300ms total)
T3EAC 1573:095 JLINK_WriteReg(R13 (SP), 0x10000FE0)  returns 0x00 (0000ms, 12300ms total)
T3EAC 1573:095 JLINK_WriteReg(R14, 0x10000001)  returns 0x00 (0000ms, 12300ms total)
T3EAC 1573:095 JLINK_WriteReg(R15 (PC), 0x10000046)  returns 0x00 (0000ms, 12300ms total)
T3EAC 1573:095 JLINK_WriteReg(XPSR, 0x01000000)  returns 0x00 (0000ms, 12300ms total)
T3EAC 1573:095 JLINK_WriteReg(MSP, 0x10000FE0)  returns 0x00 (0000ms, 12300ms total)
T3EAC 1573:095 JLINK_WriteReg(PSP, 0x10000FE0)  returns 0x00 (0000ms, 12300ms total)
T3EAC 1573:095 JLINK_WriteReg(CFBP, 0x00000000)  returns 0x00 (0000ms, 12300ms total)
T3EAC 1573:095 JLINK_SetBPEx(Addr = 0x10000000, Type = 0xFFFFFFF2)  returns 0x0000000B (0000ms, 12300ms total)
T3EAC 1573:095 JLINK_Go() -- CPU_WriteMem(4 bytes @ 0xE0002000) -- CPU_ReadMem(4 bytes @ 0xE0001000) (0003ms, 12303ms total)
T3EAC 1573:098 JLINK_IsHalted()  returns TRUE (0003ms, 12306ms total)
T3EAC 1573:101 JLINK_ReadReg(R15 (PC))  returns 0x10000000 (0000ms, 12303ms total)
T3EAC 1573:101 JLINK_ClrBPEx(BPHandle = 0x0000000B)  returns 0x00 (0000ms, 12303ms total)
T3EAC 1573:101 JLINK_ReadReg(R0)  returns 0x00000000 (0000ms, 12303ms total)
T3EAC 1573:101 JLINK_WriteMem(0x100001F8, 0x0208 Bytes, ...) - Data: B8 B4 00 20 61 03 00 1A 69 03 00 1A 6B 03 00 1A ... -- CPU_WriteMem(520 bytes @ 0x100001F8)  returns 0x208 (0003ms, 12306ms total)
T3EAC 1573:104 JLINK_WriteMem(0x10000400, 0x01F8 Bytes, ...) - Data: 6F 29 00 F0 A8 83 78 29 00 F0 E7 83 E9 29 00 F0 ... -- CPU_WriteMem(504 bytes @ 0x10000400)  returns 0x1F8 (0003ms, 12309ms total)
T3EAC 1573:107 JLINK_WriteReg(R0, 0x1A000000)  returns 0x00 (0000ms, 12309ms total)
T3EAC 1573:107 JLINK_WriteReg(R1, 0x00000400)  returns 0x00 (0000ms, 12309ms total)
T3EAC 1573:107 JLINK_WriteReg(R2, 0x100001F8)  returns 0x00 (0000ms, 12309ms total)
T3EAC 1573:107 JLINK_WriteReg(R3, 0x00000000)  returns 0x00 (0000ms, 12309ms total)
T3EAC 1573:107 JLINK_WriteReg(R4, 0x00000000)  returns 0x00 (0000ms, 12309ms total)
T3EAC 1573:107 JLINK_WriteReg(R5, 0x00000000)  returns 0x00 (0000ms, 12309ms total)
T3EAC 1573:107 JLINK_WriteReg(R6, 0x00000000)  returns 0x00 (0000ms, 12309ms total)
T3EAC 1573:107 JLINK_WriteReg(R7, 0x00000000)  returns 0x00 (0000ms, 12309ms total)
T3EAC 1573:107 JLINK_WriteReg(R8, 0x00000000)  returns 0x00 (0000ms, 12309ms total)
T3EAC 1573:107 JLINK_WriteReg(R9, 0x100001BC)  returns 0x00 (0000ms, 12309ms total)
T3EAC 1573:107 JLINK_WriteReg(R10, 0x00000000)  returns 0x00 (0000ms, 12309ms total)
T3EAC 1573:107 JLINK_WriteReg(R11, 0x00000000)  returns 0x00 (0000ms, 12309ms total)
T3EAC 1573:107 JLINK_WriteReg(R12, 0x00000000)  returns 0x00 (0000ms, 12309ms total)
T3EAC 1573:107 JLINK_WriteReg(R13 (SP), 0x10000FE0)  returns 0x00 (0000ms, 12309ms total)
T3EAC 1573:107 JLINK_WriteReg(R14, 0x10000001)  returns 0x00 (0000ms, 12309ms total)
T3EAC 1573:107 JLINK_WriteReg(R15 (PC), 0x10000144)  returns 0x00 (0000ms, 12309ms total)
T3EAC 1573:107 JLINK_WriteReg(XPSR, 0x01000000)  returns 0x00 (0000ms, 12309ms total)
T3EAC 1573:107 JLINK_WriteReg(MSP, 0x10000FE0)  returns 0x00 (0000ms, 12309ms total)
T3EAC 1573:107 JLINK_WriteReg(PSP, 0x10000FE0)  returns 0x00 (0000ms, 12309ms total)
T3EAC 1573:107 JLINK_WriteReg(CFBP, 0x00000000)  returns 0x00 (0000ms, 12309ms total)
T3EAC 1573:107 JLINK_SetBPEx(Addr = 0x10000000, Type = 0xFFFFFFF2)  returns 0x0000000C (0000ms, 12309ms total)
T3EAC 1573:107 JLINK_Go() -- CPU_WriteMem(4 bytes @ 0xE0002000) -- CPU_ReadMem(4 bytes @ 0xE0001000) (0003ms, 12312ms total)
T3EAC 1573:110 JLINK_IsHalted()  returns FALSE (0001ms, 12313ms total)
T3EAC 1573:114 JLINK_IsHalted()  returns TRUE (0002ms, 12314ms total)
T3EAC 1573:116 JLINK_ReadReg(R15 (PC))  returns 0x10000000 (0000ms, 12312ms total)
T3EAC 1573:116 JLINK_ClrBPEx(BPHandle = 0x0000000C)  returns 0x00 (0000ms, 12312ms total)
